
**** 10/11/18 11:57:08 ********* PSpice 9.2 (Mar 2000) ******** ID# 1 ********

 ** Profile: "SCHEMATIC1-Reg. trans"  [ C:\Users\Sistemas Urban\Google Drive\Fiuba\Circuitos 2\Agosto 2018\C2_OBLIG3\cc-cc-SCHEMATIC1


 ****     CIRCUIT DESCRIPTION


******************************************************************************




** Creating circuit file "cc-cc-SCHEMATIC1-Reg. trans.sim.cir" 
** WARNING: THIS AUTOMATICALLY GENERATED FILE MAY BE OVERWRITTEN BY SUBSEQUENT SIMULATIONS

*Libraries: 
* Local Libraries :
* From [PSPICE NETLIST] section of C:\Program Files\Orcad\PSpice\PSpice.ini file:
.lib "nom.lib" 

*Analysis directives: 
.TRAN  0 1500us 0 
.PROBE V(*) I(*) W(*) D(*) NOISE(*) 
.INC ".\cc-cc-SCHEMATIC1.net" 



**** INCLUDING cc-cc-SCHEMATIC1.net ****
* source CC-CC
M_M1         N00599 N00318 0 0 IRF640
D_D3         N00599 N01264 MUR880 
M_M2         N00599 N00318 0 0 IRF640
D_D4         N00599 N01264 MUR880 
M_M3         N00599 N00318 0 0 IRF640
D_D5         N00599 N01264 MUR880 
D_D6         N00599 N01264 MUR880 
M_M4         N00599 N00318 0 0 IRF640
M_M5         N00599 N00318 0 0 IRF640
R_R1         N01613 N00599  200  
L_L1         N00731 N00599  20uH  
R_R2         0 N01264  15  
V_V1         N00731 0 12Vdc
C_C1         0 N01613  3n  
V_V2         N00318 0  
+PULSE 0 12 25us 0.001ns 0.001ns 25us 50us
C_C2         0 N01264  1m  
D_D1         N00599 N01264 MUR880 
D_D2         N00599 N01264 MUR880 

**** RESUMING "cc-cc-SCHEMATIC1-Reg. trans.sim.cir" ****
.END

**** 10/11/18 11:57:08 ********* PSpice 9.2 (Mar 2000) ******** ID# 1 ********

 ** Profile: "SCHEMATIC1-Reg. trans"  [ C:\Users\Sistemas Urban\Google Drive\Fiuba\Circuitos 2\Agosto 2018\C2_OBLIG3\cc-cc-SCHEMATIC1


 ****     Diode MODEL PARAMETERS


******************************************************************************




               MUR880          
          IS   12.400000E-15 
         ISR   62.820000E-09 
         IKF     .0542       
          RS     .07985      
          TT  185.000000E-09 
         CJO  471.300000E-12 
          VJ     .75         
           M     .4206       
         XTI   15            


**** 10/11/18 11:57:08 ********* PSpice 9.2 (Mar 2000) ******** ID# 1 ********

 ** Profile: "SCHEMATIC1-Reg. trans"  [ C:\Users\Sistemas Urban\Google Drive\Fiuba\Circuitos 2\Agosto 2018\C2_OBLIG3\cc-cc-SCHEMATIC1


 ****     MOSFET MODEL PARAMETERS


******************************************************************************




               IRF640          
               NMOS            
       LEVEL    3            
           L    2.000000E-06 
           W     .66         
         VTO    3.788        
          KP   20.730000E-06 
       GAMMA    0            
         PHI     .6          
      LAMBDA    0            
          RD     .09558      
          RS     .01961      
          RG    2.954        
         RDS  888.900000E+03 
          IS   16.390000E-12 
          JS    0            
          PB     .8          
        PBSW     .8          
         CBD    1.872000E-09 
          CJ    0            
        CJSW    0            
          TT  312.000000E-09 
        CGSO    1.745000E-09 
        CGDO  334.700000E-12 
        CGBO    0            
         TOX  100.000000E-09 
          XJ    0            
       UCRIT   10.000000E+03 
       DELTA    0            
         ETA    0            
      DIOMOD    1            
         VFB    0            
        LETA    0            
        WETA    0            
          U0    0            
        TEMP    0            
         VDD    0            
       XPART    0            


**** 10/11/18 11:57:08 ********* PSpice 9.2 (Mar 2000) ******** ID# 1 ********

 ** Profile: "SCHEMATIC1-Reg. trans"  [ C:\Users\Sistemas Urban\Google Drive\Fiuba\Circuitos 2\Agosto 2018\C2_OBLIG3\cc-cc-SCHEMATIC1


 ****     INITIAL TRANSIENT SOLUTION       TEMPERATURE =   27.000 DEG C


******************************************************************************



 NODE   VOLTAGE     NODE   VOLTAGE     NODE   VOLTAGE     NODE   VOLTAGE


(N00318)    0.0000 (N00599)   12.0000 (N00731)   12.0000 (N01264)   11.2200     

(N01613)   12.0000 




    VOLTAGE SOURCE CURRENTS
    NAME         CURRENT

    V_V1        -7.480E-01
    V_V2         0.000E+00

    TOTAL POWER DISSIPATION   8.98E+00  WATTS



          JOB CONCLUDED

          TOTAL JOB TIME             .44
