
**** 10/14/18 16:02:17 ********* PSpice 9.2 (Mar 2000) ******** ID# 0 ********

 ** Profile: "SCHEMATIC1-Reg. permanente"  [ d:\facu\tps_c2\c2_oblig3\orcad\ej1_v2\tp3-schematic1-reg. permanente.sim ] 


 ****     CIRCUIT DESCRIPTION


******************************************************************************




** Creating circuit file "tp3-schematic1-reg. permanente.sim.cir" 
** WARNING: THIS AUTOMATICALLY GENERATED FILE MAY BE OVERWRITTEN BY SUBSEQUENT SIMULATIONS

*Libraries: 
* Local Libraries :
* From [PSPICE NETLIST] section of C:\Program Files\Orcad_v2\PSpice\PSpice.ini file:
.lib "nom.lib" 

*Analysis directives: 
.TRAN  0 11m 10m 
.PROBE V(*) I(*) W(*) D(*) NOISE(*) 
.INC ".\tp3-SCHEMATIC1.net" 



**** INCLUDING tp3-SCHEMATIC1.net ****
* source TP3
R_R5         N00535 N00952  0.5  
M_M1         N00579 N01204 N01091 N01091 IRF9640
R_R6         N00535 N00783  0.5  
M_M2         N01010 N01204 N01091 N01091 IRF9640
C_C1         0 N03954  5n  
M_M3         N00981 N01204 N01091 N01091 IRF9640
M_M4         N00952 N01204 N01091 N01091 IRF9640
C_C2         0 N01705  1m  
M_M5         N00783 N01204 N01091 N01091 IRF9640
L_L1         N00535 N01705  10uH  
V_V1         N01091 0 12Vdc
I_I1         N01705 0 DC 2Adc  
R_R2         N00535 N00579  0.5  
R_R3         N00535 N01010  0.5  
D_D1         0 N00535 MUR880 
R_R4         N00535 N00981  0.5  
V_V2         N01204 0  
+PULSE 0 12 25us 0.001ns 0.001ns 25us 50us
R_R1         N03954 N00535  100  

**** RESUMING "tp3-schematic1-reg. permanente.sim.cir" ****
.END

**** 10/14/18 16:02:17 ********* PSpice 9.2 (Mar 2000) ******** ID# 0 ********

 ** Profile: "SCHEMATIC1-Reg. permanente"  [ d:\facu\tps_c2\c2_oblig3\orcad\ej1_v2\tp3-schematic1-reg. permanente.sim ] 


 ****     Diode MODEL PARAMETERS


******************************************************************************




               MUR880          
          IS   12.400000E-15 
         ISR   62.820000E-09 
         IKF     .0542       
          RS     .07985      
          TT  185.000000E-09 
         CJO  471.300000E-12 
          VJ     .75         
           M     .4206       
         XTI   15            


**** 10/14/18 16:02:17 ********* PSpice 9.2 (Mar 2000) ******** ID# 0 ********

 ** Profile: "SCHEMATIC1-Reg. permanente"  [ d:\facu\tps_c2\c2_oblig3\orcad\ej1_v2\tp3-schematic1-reg. permanente.sim ] 


 ****     MOSFET MODEL PARAMETERS


******************************************************************************




               IRF9640         
               PMOS            
       LEVEL    3            
           L    2.000000E-06 
           W    1.8          
         VTO   -3.813        
          KP   10.380000E-06 
       GAMMA    0            
         PHI     .6          
      LAMBDA    0            
          RD     .2527       
          RS     .07836      
          RG     .5203       
         RDS  888.900000E+03 
          IS  870.000000E-18 
          JS    0            
           N    2            
          PB     .8          
        PBSW     .8          
         CBD    1.369000E-09 
          CJ    0            
        CJSW    0            
          TT  325.000000E-09 
        CGSO    5.136000E-09 
        CGDO   54.110000E-12 
        CGBO    0            
         TOX  100.000000E-09 
          XJ    0            
          UO  300            
       UCRIT   10.000000E+03 
       DELTA    0            
         ETA    0            
      DIOMOD    1            
         VFB    0            
        LETA    0            
        WETA    0            
          U0    0            
        TEMP    0            
         VDD    0            
       XPART    0            


**** 10/14/18 16:02:17 ********* PSpice 9.2 (Mar 2000) ******** ID# 0 ********

 ** Profile: "SCHEMATIC1-Reg. permanente"  [ d:\facu\tps_c2\c2_oblig3\orcad\ej1_v2\tp3-schematic1-reg. permanente.sim ] 


 ****     INITIAL TRANSIENT SOLUTION       TEMPERATURE =   27.000 DEG C


******************************************************************************



 NODE   VOLTAGE     NODE   VOLTAGE     NODE   VOLTAGE     NODE   VOLTAGE


(N00535)   11.6620 (N00579)   11.8620 (N00783)   11.8620 (N00952)   11.8620     

(N00981)   11.8620 (N01010)   11.8620 (N01091)   12.0000 (N01204)    0.0000     

(N01705)   11.6620 (N03954)   11.6620 




    VOLTAGE SOURCE CURRENTS
    NAME         CURRENT

    V_V1        -2.000E+00
    V_V2         0.000E+00

    TOTAL POWER DISSIPATION   2.40E+01  WATTS



          JOB CONCLUDED

          TOTAL JOB TIME            2.20
